!Keysight	Technologies	PLTS	2019	Build	20190114.1			
!Deembedding/AFR	applied							
!FILE:	C:\Users\Adv.Develop-SI	LAB\Desktop\New	folder	(2)\New	folder\LL.s4p			
!$DUT	CFG	DESC:	Default	4-Port	Configuration			
!$NUMBER	PORTS:	4						
!$DIFF	PORT	MAP:	1|2P|2|2P|0|UC|0|UC|					
!$PORT	MAP:	1|1|<<<<<<|2|2|>>>>>>|3|3|<<<<<<|4|4|>>>>>>|						
!Date:	Tuesday	January	19	2021	5:03:33			
!S2P	File:	Measurements:	SDD11	SDD12	SDD21	SDD22:		
#	MHz	S	DB	R	50			
10	-38.52949158	-107.7487461	-0.128346887	-5.997468746	-0.120052984	-6.061137414	-38.9940029	-89.72067965
20	-32.05125311	-98.73095263	-0.153406681	-11.86812482	-0.164762211	-11.92746438	-31.44674958	-92.83157184
30	-27.83118372	-104.867026	-0.198063246	-17.55430914	-0.19322871	-17.54808504	-27.46288011	-97.6658325
40	-25.07183635	-109.8349627	-0.240432266	-23.17669005	-0.246582976	-23.1405294	-24.63261219	-102.4861063
50	-22.96339668	-116.2718161	-0.28031368	-28.76787223	-0.284307569	-28.73960756	-22.68774686	-108.5185641
60	-21.45442158	-122.4411702	-0.313124834	-34.34158847	-0.316034383	-34.36032742	-21.10204458	-114.0935803
70	-20.20970988	-128.4253785	-0.35866117	-39.87107692	-0.358969308	-39.85219215	-19.94298428	-119.7764779
80	-19.21108069	-134.7366185	-0.392535909	-45.35680812	-0.39432894	-45.32808956	-18.94229397	-125.0707093
90	-18.43777647	-140.9177854	-0.426519533	-50.84326244	-0.428321947	-50.84527932	-18.11078021	-130.3893832
100	-17.80605973	-146.7258872	-0.466049537	-56.26032832	-0.46564049	-56.25858699	-17.45451349	-135.8543496
110	-17.31506552	-152.8230146	-0.498119901	-61.721169	-0.498205741	-61.71077444	-16.96883406	-140.9490063
120	-16.88459141	-158.4823456	-0.52792618	-67.08215075	-0.530012294	-67.08604609	-16.53259495	-146.0816414
130	-16.56604341	-164.2535979	-0.554975047	-72.44936455	-0.556529925	-72.47842176	-16.24571248	-151.1761457
140	-16.3389725	-169.9252408	-0.588120824	-77.85923785	-0.586645242	-77.87003537	-16.03766762	-156.2115026
150	-16.19602052	-175.6931363	-0.605336177	-83.18403612	-0.610809422	-83.20598513	-15.90079192	-161.1676511
160	-16.18522117	178.6929545	-0.637099393	-88.56587137	-0.636377483	-88.56110558	-15.85645709	-166.1164303
170	-16.22307584	173.1794171	-0.655031218	-93.88078666	-0.656269654	-93.89629032	-15.88829452	-171.0036849
180	-16.34286826	167.8171532	-0.668999732	-99.23955488	-0.671290802	-99.22244399	-16.02295468	-175.8245691
190	-16.54714393	162.5152957	-0.687097102	-104.5764227	-0.687712656	-104.5686017	-16.25401878	179.2796752
200	-16.84459649	157.2978992	-0.698049663	-109.8981054	-0.702076357	-109.9008981	-16.55750744	174.575761
210	-17.23923711	152.1753365	-0.709485177	-115.2372937	-0.711074364	-115.2430716	-16.95977908	169.7523311
220	-17.75841558	147.0579715	-0.713880258	-120.6142102	-0.718493952	-120.624791	-17.49188722	164.9645218
230	-18.35103584	142.4378302	-0.725939793	-125.9901886	-0.724685125	-125.9951639	-18.11389194	160.2874298
240	-19.11714404	137.8049365	-0.731225248	-131.3694909	-0.731817525	-131.3746839	-18.91521504	155.6681581
250	-20.00106415	133.718593	-0.738883195	-136.7543363	-0.739016365	-136.7672095	-19.88434875	151.2061389
260	-21.11608676	129.8359933	-0.748202908	-142.1580861	-0.746427508	-142.1561177	-21.05327915	146.6841897
270	-22.49022743	127.0945926	-0.751804796	-147.6119344	-0.752858912	-147.5943783	-22.53448515	142.6334239
280	-24.15144432	125.773882	-0.763767997	-153.0164182	-0.767391936	-153.0197047	-24.39763606	139.2249587
290	-26.22821936	127.1897419	-0.771291062	-158.4418141	-0.773928533	-158.4627089	-26.85265924	136.57219
300	-28.7290749	133.2619868	-0.783444401	-163.9229537	-0.782549878	-163.910901	-30.41487052	137.6806683
310	-31.31657335	150.4031044	-0.794614485	-169.3641363	-0.794808352	-169.3627998	-36.60464041	150.6732913
320	-32.12375411	-179.3720797	-0.814417357	-174.7738022	-0.813619297	-174.7960795	-40.71372804	-133.946046
330	-30.04520876	-154.926259	-0.826742758	179.7364643	-0.830340166	179.7458435	-33.21057353	-96.79703773
340	-27.27803848	-144.6040554	-0.849200931	174.2857097	-0.851313096	174.2907758	-28.47482716	-92.85814807
350	-24.8964536	-140.4978823	-0.869722179	168.8395748	-0.870726654	168.8634664	-25.48916611	-93.9345115
360	-23.03806544	-140.6249465	-0.890846164	163.4292499	-0.894304778	163.4292152	-23.35004253	-97.02075896
370	-21.4844805	-142.3485729	-0.921518382	158.0137272	-0.920680749	157.9928023	-21.65983282	-101.0514853
380	-20.21173967	-145.3914076	-0.947750044	152.6069638	-0.95198069	152.5955625	-20.33237032	-105.1345824
390	-19.15297256	-148.6295838	-0.977591575	147.209367	-0.979098552	147.1983585	-19.20828656	-109.6751903
400	-18.29495389	-152.5649819	-1.010072148	141.8441228	-1.009873086	141.8277487	-18.30291314	-114.3332543
410	-17.58141686	-156.4352938	-1.039067531	136.4352498	-1.038589328	136.4335646	-17.54828126	-119.1762665
420	-16.98331064	-160.6864748	-1.062566715	131.1015211	-1.064268651	131.0842236	-16.96033559	-123.905597
430	-16.50843109	-164.8469512	-1.093631157	125.8091625	-1.094010092	125.7941225	-16.45528777	-128.7182816
440	-16.10712358	-169.0891726	-1.118271391	120.5086357	-1.122857478	120.4717878	-16.06790484	-133.7126682
450	-15.82152894	-173.4759474	-1.143586074	115.2176555	-1.14661279	115.2078651	-15.78413797	-138.6127249
460	-15.60108321	-177.8102029	-1.162424727	109.8972919	-1.164417269	109.896621	-15.59100948	-143.7014532
470	-15.47135902	177.9319966	-1.180887111	104.6237994	-1.18276691	104.6208477	-15.46619289	-148.6076279
480	-15.40323763	173.672498	-1.198842947	99.36878889	-1.203008698	99.36892937	-15.46091483	-153.7570146
490	-15.41137222	169.419542	-1.218218903	94.09140691	-1.219636547	94.08014834	-15.50668132	-159.0235851
500	-15.47834191	165.4208121	-1.232101084	88.82130375	-1.233026451	88.81551423	-15.64984691	-164.1279109
510	-15.63851691	161.5248909	-1.245162073	83.53143147	-1.246472221	83.53335567	-15.83502579	-169.4536922
520	-15.87469419	157.7625005	-1.252756946	78.23504642	-1.255966455	78.23932391	-16.11927899	-174.8025112
530	-16.18615055	154.2914005	-1.259337526	72.97297555	-1.260864162	72.96130461	-16.50611548	179.7573266
540	-16.57628352	151.1056695	-1.268745644	67.65992402	-1.270431424	67.66092955	-16.98952892	174.2523524
550	-17.08065392	148.14428	-1.27392568	62.3470374	-1.273886155	62.34052247	-17.5803128	168.7736316
560	-17.68121692	145.7266247	-1.274608699	57.00290515	-1.278597146	56.99118981	-18.30531047	163.0646845
570	-18.38021146	143.7346578	-1.286491163	51.65052667	-1.283346221	51.64393746	-19.21751833	157.1546593
580	-19.17542058	142.7240832	-1.288178864	46.28151661	-1.29184813	46.28480115	-20.32983792	151.3327248
590	-20.08525324	142.5452529	-1.295034547	40.92441621	-1.29466865	40.92366639	-21.68403843	144.6683604
600	-21.10673247	143.8029315	-1.301372831	35.53435155	-1.304655738	35.52785437	-23.44557857	137.4711372
610	-22.11764087	147.0316407	-1.30878676	30.15058568	-1.311279895	30.14416023	-25.61681986	129.1204077
620	-23.11396393	152.4450423	-1.322694734	24.76173881	-1.322128098	24.73180245	-28.63535214	117.9588627
630	-23.85040611	160.7022263	-1.336028015	19.35520614	-1.337827775	19.35175769	-32.98570625	99.49890452
640	-24.10297243	170.9677348	-1.349261807	13.92910765	-1.352566846	13.94060011	-38.1956304	47.13069786
650	-23.78994564	-179.2693234	-1.368256927	8.530634782	-1.368125686	8.516944443	-34.71934286	-18.57391401
660	-23.02804877	-171.1716692	-1.387482162	3.141283982	-1.387747801	3.124646626	-29.78967583	-43.05479466
670	-22.01647308	-165.425064	-1.411512873	-2.257267486	-1.411061457	-2.274725449	-26.47256408	-55.64535666
680	-20.93589286	-162.0987173	-1.433004691	-7.654124252	-1.436614858	-7.669001575	-24.05623889	-64.6250897
690	-19.93285015	-160.5821124	-1.459591126	-13.02761772	-1.462997883	-13.02516347	-22.25369784	-72.30751956
700	-19.00868661	-160.4191834	-1.4896869	-18.38668411	-1.492050265	-18.38856509	-20.82493772	-79.19244056
710	-18.18468287	-161.2868158	-1.51764933	-23.74292573	-1.518959016	-23.74652294	-19.6413113	-85.64684043
720	-17.46443979	-162.7564326	-1.545784013	-29.07808866	-1.546935739	-29.07487971	-18.7086827	-91.84813499
730	-16.81907721	-164.6559745	-1.575511438	-34.38987135	-1.5739597	-34.4069417	-17.93871388	-97.86649868
740	-16.30055928	-167.0177453	-1.602617671	-39.67433922	-1.602814102	-39.68251647	-17.30989265	-103.7894518
750	-15.84278236	-169.6108146	-1.631137831	-44.9597702	-1.631559959	-44.97550553	-16.79682155	-109.6457972
760	-15.47053803	-172.308541	-1.658407152	-50.22244554	-1.659217043	-50.2292058	-16.38590839	-115.5749721
770	-15.1738472	-175.1478668	-1.683741535	-55.4884954	-1.685505277	-55.50079423	-16.07096553	-121.3901658
780	-14.94169464	-178.0203272	-1.70607412	-60.73122071	-1.706512231	-60.72569355	-15.82869426	-127.2300718
790	-14.77394831	179.115792	-1.730053208	-65.97448571	-1.730666484	-65.98140617	-15.6678178	-133.1503313
800	-14.66373389	176.282369	-1.746883338	-71.17939922	-1.749268083	-71.19330469	-15.59352493	-138.925866
810	-14.63104585	173.4315766	-1.76915575	-76.43084954	-1.768731528	-76.42407727	-15.58126459	-144.918397
820	-14.64675103	170.8006731	-1.7830107	-81.65220455	-1.783657852	-81.65411209	-15.64614928	-150.7904248
830	-14.71926268	168.1001861	-1.79650337	-86.86010766	-1.797787781	-86.86488465	-15.78468431	-156.7899336
840	-14.84437065	165.5880735	-1.807810003	-92.09202282	-1.81000889	-92.0962675	-16.00556251	-162.9047282
850	-15.01691446	163.3192867	-1.816953981	-97.31916746	-1.818746901	-97.33134056	-16.29677972	-169.1244076
860	-15.24242914	161.1459362	-1.826483845	-102.571228	-1.82791024	-102.5787022	-16.67670112	-175.579948
870	-15.51043247	159.3052625	-1.832112352	-107.8136409	-1.835771162	-107.8250937	-17.14270786	177.7422735
880	-15.8173767	157.8094247	-1.83925201	-113.052954	-1.839053114	-113.0660872	-17.70687348	170.8632314
890	-16.16310635	156.658454	-1.844532251	-118.3361583	-1.846242957	-118.3595635	-18.366423	163.5179557
900	-16.53254005	155.893517	-1.850751694	-123.621819	-1.853974404	-123.6432759	-19.13831978	155.835424
910	-16.93088169	155.7073799	-1.855592749	-128.909964	-1.85825873	-128.9278949	-20.0207242	147.4307978
920	-17.33693086	156.0588875	-1.862017331	-134.2033154	-1.863509874	-134.2126856	-21.03648851	138.1724742
930	-17.73001822	157.0024021	-1.868313243	-139.5155589	-1.869119215	-139.5221086	-22.18250192	127.6692517
940	-18.09424215	158.5170069	-1.876975722	-144.8275668	-1.877619697	-144.8402384	-23.49318892	115.4263533
950	-18.38583515	160.64673	-1.887056685	-150.1583722	-1.889110708	-150.1653613	-24.82891567	100.4116444
960	-18.60939171	163.1306084	-1.896225045	-155.4790734	-1.899432082	-155.4851274	-26.10178612	82.14044445
970	-18.72810107	165.9302138	-1.908349779	-160.8030659	-1.912074181	-160.8143495	-26.98840217	60.05226332
980	-18.73968094	168.8217719	-1.919947676	-166.1212611	-1.922510088	-166.1402594	-27.06465144	36.41989394
990	-18.63693157	171.5341872	-1.934708233	-171.4479211	-1.935426898	-171.4676982	-26.36446924	13.89857555
1000	-18.44248482	173.8987887	-1.949527064	-176.7560908	-1.950802394	-176.7744061	-25.24586297	-4.652610469
1010	-18.19942184	175.7864418	-1.962536778	177.9264627	-1.96926494	177.920843	-24.00400171	-19.86404491
1020	-17.89927469	177.1339432	-1.983165785	172.6229623	-1.984963814	172.6119107	-22.7994158	-32.46969439
1030	-17.57358983	178.076519	-1.997716048	167.3180479	-2.002583742	167.3178699	-21.72709531	-43.25680159
1040	-17.24790708	178.4053085	-2.0166623	162.0423849	-2.01888657	162.0329442	-20.79967428	-52.73044684
1050	-16.94769625	178.3117687	-2.036273481	156.7724889	-2.038266995	156.7597941	-20.02745628	-61.3668332
1060	-16.66255295	177.7922338	-2.05340832	151.5022041	-2.057870825	151.4954431	-19.35486407	-69.55075409
1070	-16.40374875	177.0318233	-2.072182566	146.236451	-2.073984801	146.2387844	-18.79068115	-77.16204111
1080	-16.19329825	175.9221053	-2.08826907	140.9870796	-2.088965642	140.9719307	-18.33773765	-84.3964427
1090	-16.02146119	174.650252	-2.103370341	135.7419708	-2.104247999	135.7360151	-17.97916942	-91.59124887
1100	-15.88410093	173.1775795	-2.118941461	130.5322474	-2.119351135	130.5005435	-17.71298322	-98.52445026
1110	-15.79811696	171.577809	-2.1307417	125.2898848	-2.132985906	125.2702345	-17.51517281	-105.3421204
1120	-15.75572569	170.0322999	-2.141629476	120.0637307	-2.146373389	120.0680077	-17.40254364	-112.0476922
1130	-15.75523743	168.3246996	-2.152560382	114.8248064	-2.152557887	114.8023055	-17.36489237	-118.7727043
1140	-15.79881477	166.6102392	-2.163934342	109.6194412	-2.164978962	109.5978012	-17.39884364	-125.3902363
1150	-15.89184941	165.0396918	-2.170951754	104.3870002	-2.172210825	104.3634484	-17.5228616	-132.0694313
1160	-16.03945233	163.5840898	-2.177426426	99.15112832	-2.177218139	99.12472404	-17.71536242	-138.8929022
1170	-16.20649983	162.1876446	-2.180077951	93.89634155	-2.18212632	93.87551927	-17.99289796	-145.7087366
1180	-16.43136343	161.077079	-2.184568047	88.66418479	-2.185512134	88.64295139	-18.34722982	-152.7248941
1190	-16.69366372	160.1949499	-2.188368931	83.41499052	-2.188947254	83.39593257	-18.80654275	-159.9177228
1200	-16.99704453	159.5455474	-2.190875349	78.14975197	-2.191783515	78.13416027	-19.35401047	-167.4798976
1210	-17.32968725	159.3190031	-2.190544866	72.87328324	-2.193867914	72.85976814	-20.02217821	-175.2656152
1220	-17.68699648	159.5389364	-2.193477568	67.60062273	-2.195682443	67.58049702	-20.78460951	176.2632227
1230	-18.06606127	160.2030258	-2.1927799	62.3022954	-2.197029326	62.28892822	-21.70730602	167.2072011
1240	-18.42410776	161.5498745	-2.196464164	57.00657899	-2.196653664	57.0035434	-22.7507242	157.1960585
1250	-18.74544753	163.3564699	-2.197270363	51.70205832	-2.201183884	51.69570441	-23.97783218	145.829775
1260	-19.02676626	165.6852102	-2.203189755	46.3926165	-2.205880481	46.37610124	-25.3383751	132.2119223
1270	-19.22999829	168.6016626	-2.208396728	41.06833574	-2.208551116	41.05265402	-26.76993092	115.1793733
1280	-19.31786968	171.7273094	-2.215077694	35.75502803	-2.216007762	35.73636735	-27.96932499	93.62870993
1290	-19.29540486	175.055579	-2.222573098	30.42538875	-2.222529707	30.39086767	-28.46446779	68.38067642
1300	-19.13641535	178.1674135	-2.231053547	25.09520467	-2.233889499	25.07317986	-27.96828711	42.95932876
1310	-18.87139576	-178.9860363	-2.242144576	19.77149954	-2.243930899	19.75788652	-26.7363581	21.3305362
1320	-18.52833795	-176.6754257	-2.2564907	14.44699606	-2.257076341	14.42562617	-25.21247572	4.089277251
1330	-18.1068957	-174.8846967	-2.267322802	9.134433984	-2.270487616	9.117452557	-23.737811	-9.78234045
1340	-17.65095855	-173.7739361	-2.282930635	3.826404265	-2.283776976	3.799685142	-22.42907934	-21.51775946
1350	-17.19571924	-173.2576809	-2.299403634	-1.499396246	-2.301373816	-1.517039583	-21.26732998	-31.60348866
1360	-16.73846651	-173.2480965	-2.313712906	-6.788655057	-2.316739731	-6.803188026	-20.24488514	-40.55961468
1370	-16.30500002	-173.8555961	-2.331764037	-12.08642124	-2.332562865	-12.11155339	-19.36457834	-48.94996081
1380	-15.89984659	-174.7976771	-2.350909024	-17.35449799	-2.351908467	-17.38033588	-18.60753517	-56.64974447
1390	-15.5191753	-176.1473651	-2.368329071	-22.64218016	-2.370012753	-22.66548933	-17.93284353	-64.05638642
1400	-15.18622257	-177.7914417	-2.387369118	-27.8913729	-2.387526093	-27.89691406	-17.36076678	-71.03665251
1410	-14.89437534	-179.7262518	-2.402934821	-33.11580629	-2.405213362	-33.13083582	-16.8697101	-77.78899754
1420	-14.64006776	178.0884177	-2.421128973	-38.36025968	-2.421378066	-38.38037537	-16.45749041	-84.44172506
1430	-14.4220064	175.752703	-2.434238458	-43.57926017	-2.436647566	-43.61086702	-16.11068259	-90.84364146
1440	-14.25426751	173.1685224	-2.450160178	-48.77552151	-2.451891453	-48.81750108	-15.82347898	-97.1021602
1450	-14.11911783	170.5308718	-2.462298887	-53.99756922	-2.463850563	-53.99904943	-15.6046323	-103.360356
1460	-14.02835898	167.7003543	-2.475423405	-59.1913175	-2.47541378	-59.21246336	-15.43917933	-109.529804
1470	-13.97917188	164.792498	-2.482951881	-64.39266745	-2.483858485	-64.40364048	-15.31918364	-115.547474
1480	-13.97756851	161.8463422	-2.490339275	-69.57347775	-2.492654723	-69.58367014	-15.26395892	-121.5507458
1490	-14.00575181	158.7960967	-2.495295736	-74.7611827	-2.496473593	-74.78454814	-15.24120558	-127.4709053
1500	-14.0885834	155.6534071	-2.498815216	-79.97342284	-2.500557592	-79.98780342	-15.27246774	-133.2308549
1510	-14.21262716	152.4714618	-2.500287779	-85.17194204	-2.500967044	-85.19288937	-15.34465732	-139.04179
1520	-14.38142126	149.2553989	-2.498991241	-90.36934248	-2.502898444	-90.38815496	-15.47328743	-144.6482361
1530	-14.61037965	146.0672467	-2.499769566	-95.59001751	-2.502524138	-95.59859711	-15.6545515	-150.1977206
1540	-14.87651824	142.7978262	-2.494525867	-100.8075899	-2.497511497	-100.8230204	-15.88421646	-155.652515
1550	-15.20054308	139.5212515	-2.490091253	-106.0425555	-2.492399815	-106.0501238	-16.17070158	-161.022995
1560	-15.58259821	136.2838527	-2.484685832	-111.2706318	-2.48567087	-111.2852179	-16.52314614	-166.2737529
1570	-16.03249887	133.0673694	-2.478437211	-116.5303257	-2.480956564	-116.5406094	-16.93162171	-171.4898723
1580	-16.55456313	129.9248211	-2.472923356	-121.8058148	-2.474077567	-121.8195718	-17.4162729	-176.4321343
1590	-17.14846109	126.809846	-2.46370733	-127.0633372	-2.466579778	-127.0802907	-17.94803319	178.7337693
1600	-17.83308078	123.9808622	-2.458067425	-132.3494014	-2.460176581	-132.3725507	-18.56636171	174.1370068
1610	-18.62605117	121.118016	-2.451199536	-137.6709794	-2.453592342	-137.6820507	-19.24987602	169.9406547
1620	-19.55042494	118.581825	-2.445350525	-142.9883082	-2.447127612	-143.0044459	-20.03304255	166.1083624
1630	-20.59309447	116.4190357	-2.439940906	-148.3203349	-2.441400938	-148.3221853	-20.91883843	162.8476961
1640	-21.81001759	114.6629934	-2.436000279	-153.6517268	-2.438542333	-153.6684934	-21.87588307	160.5593454
1650	-23.24840382	113.8308876	-2.43533599	-159.0008348	-2.438630288	-159.0020687	-22.92513842	159.1157448
1660	-24.9475585	114.1492966	-2.435449203	-164.3381963	-2.436345869	-164.3466913	-24.07613585	159.2239962
1670	-27.01449827	116.949491	-2.435980663	-169.697983	-2.437565655	-169.7265455	-25.27562238	161.1721597
1680	-29.39898131	123.9244138	-2.43689675	-175.0488857	-2.439084978	-175.0664118	-26.41238983	165.5804658
1690	-31.90984112	139.366427	-2.441971542	179.6086555	-2.443743973	179.5789978	-27.23225027	172.6009774
1700	-33.13228763	166.0838697	-2.446174078	174.2380585	-2.446588314	174.2113192	-27.60065095	-178.7073686
1710	-31.85127654	-167.8867692	-2.454626433	168.8887328	-2.456615077	168.8743281	-27.36723258	-170.0352844
1720	-29.51645542	-153.4406127	-2.463557495	163.5330278	-2.463130172	163.5044464	-26.6709898	-163.5745603
1730	-27.29977315	-146.4134716	-2.472826587	158.1819204	-2.474430159	158.1464813	-25.69541462	-159.6460148
1740	-25.49131498	-143.83452	-2.487181707	152.8404035	-2.487362709	152.8246426	-24.70969939	-158.1042871
1750	-23.9849081	-143.4401578	-2.492814133	147.5034149	-2.497041076	147.4984471	-23.75174601	-158.2882476
1760	-22.75918165	-144.124864	-2.508750387	142.1891342	-2.509993936	142.1625891	-22.87476038	-160.1541316
1770	-21.75685937	-145.6909866	-2.521791355	136.8671732	-2.524613634	136.8394033	-22.09952412	-162.8684033
1780	-20.89190693	-147.5520338	-2.538551404	131.5299707	-2.539223566	131.5306004	-21.43177228	-166.3397877
1790	-20.18704796	-149.8236656	-2.549683055	126.2404823	-2.550669243	126.226701	-20.8531578	-170.4556494
1800	-19.57730746	-152.2664272	-2.562193529	120.9361591	-2.565135659	120.9289514	-20.36045631	-175.0298041
1810	-19.08227267	-154.7834582	-2.573986328	115.6593845	-2.575411718	115.6530018	-19.93743397	-179.8962384
1820	-18.64762345	-157.4804828	-2.587495664	110.3720648	-2.590110421	110.3479862	-19.56115412	174.8809658
1830	-18.29755974	-160.1025014	-2.601236884	105.1053284	-2.60227428	105.0857697	-19.28000668	169.4771105
1840	-18.00743949	-162.7752574	-2.613790707	99.81751286	-2.614806077	99.8103889	-19.0657784	163.9424241
1850	-17.78377124	-165.3861191	-2.624110139	94.53969385	-2.626263419	94.53411008	-18.87717298	158.2108296
