!Keysight Technologies PLTS 2019, Build 20190114.1
!Deembedding/AFR applied
!FILE: C:\Users\Adv.Develop-SI LAB\Desktop\New folder (2)\New folder\LL.s4p
!$DUT_CFG_DESC: Default 4-Port Configuration
!$NUMBER_PORTS: 4
!$DIFF_PORT_MAP: 1|2P|2|2P|0|UC|0|UC|
!$PORT_MAP: 1|1|<<<<<<|2|2|>>>>>>|3|3|<<<<<<|4|4|>>>>>>|
!Date: Tuesday, January 19, 2021, 05:03:26
!S4P File: Measurements: <S11,S12,S13,S14>,
!<S21,S22,S23,S24>,
!<S31,S32,S33,S34>,
!<S41,S42,S43,S44>:
# MHz S  DB   R 50
10           -56.4913118444005        59.590538634069          -0.13627276222699        -6.1114948885889         -36.58755577726          73.010123385376          -53.3660956707163        -101.102878239134       
             -0.11777461286475        -6.21322415157204        -48.6476987996953        26.2894388032854         -53.5145147873213        -106.800621836249        -36.4038810568172        77.9457202350491        
             -36.2488870272747        70.2599937225939         -48.9364265568779        -92.0331156542513        -45.9304735648184        72.1299189691993         -0.119854345049838       -6.21498288896202       
             -53.1495503780626        -83.0807746908084        -36.6177023375213        75.5870850663675         -0.121399432860575       -6.15402066067477        -44.1823252003138        54.0157953565972        
20           -48.3750732739897        -23.3924235898138        -0.154699388508752       -12.1270436988709        -31.0429622218424        72.3089580186413         -49.7563846898715        -122.475043000333       
             -0.157450366190527       -12.1968242427765        -42.0014880099428        -26.3354462617089        -52.6524519599797        -109.472415270897        -30.9243383890348        70.3516162537241        
             -31.4224856521631        72.0141108514677         -50.7879006804389        -117.634949092649        -42.8204742879042        37.5303533186656         -0.169087952338344       -11.9490003047844       
             -50.7820592589344        -121.799713940045        -31.2320558019898        70.5509160547185         -0.183404903095077       -11.951521172456         -40.600370872931         16.7973525796609        
30           -41.6589875480853        -52.5310401345924        -0.206204478062594       -17.9098576361512        -27.8267806941775        66.3373797127129         -48.9468287634477        -120.751045916227       
             -0.202714381249          -17.8756825347325        -38.3471431271295        -48.3398405846112        -48.918820192105         -120.631047520426        -27.8513981302724        67.2724941163651        
             -27.7861335834275        66.0217415029434         -48.4730307251765        -115.070400438289        -42.5199839043818        20.0940796825775         -0.201377742294622       -17.6219469170935       
             -49.2598270925096        -126.184903040544        -27.7996056116521        66.6254067290511         -0.200576864135086       -17.6164384031363        -38.0817023420837        -0.72155612407672       
40           -37.8750316737267        -71.332582509627         -0.246322400149832       -23.6003780648228        -25.6474287019625        62.1304715236082         -47.5129310926603        -127.191661314789       
             -0.252173854723656       -23.5708433114518        -34.969979808271         -62.9202285573685        -47.4871924712852        -120.631293547366        -25.5725541929368        61.9708616564779        
             -25.5662300538262        61.4495836797529         -47.9290205733799        -114.167463933426        -42.3218954055043        -3.03442111967824        -0.244029322097764       -23.2303480342121       
             -46.9510267793061        -124.549883449904        -25.5345321016033        62.8981267293687         -0.253604690255141       -23.2169290353347        -35.8247793128147        -18.4600735521343       
50           -35.2909756767845        -86.2076243523968        -0.284477615603078       -29.286961839417         -23.8301978040985        56.3890046985473         -47.0619816756736        -125.926751986967       
             -0.288512811882851       -29.2779293915059        -32.7988351455001        -74.6448084132292        -46.8561301087282        -120.613541927396        -23.9015864459469        57.3467947298917        
             -23.8305851982679        56.3551379975698         -46.7470593150584        -122.734514346745        -42.0839508099221        -23.962656639094         -0.283606875448049       -28.7809267783588       
             -46.0700760263646        -124.464764845125        -23.8874009884547        57.1236890750562         -0.285503450004633       -28.7631385789105        -34.3903079983826        -30.4497421969712       
60           -33.5085496315691        -95.9626115610325        -0.318991692039814       -34.9386558429057        -22.5272806155011        51.2150498067199         -45.9757348403546        -128.623974397745       
             -0.319928479460074       -34.9364425158407        -31.130304688148         -83.6856914851401        -46.6718888926277        -123.959973261545        -22.5666726929224        52.4087324697586        
             -22.5606088736969        51.0281777413768         -45.367600099229         -118.958049964384        -42.4069577977603        -47.6138458867412        -0.305616780705854       -34.3613884163061       
             -45.6591149651306        -127.719121101341        -22.5608609737856        52.3224282449107         -0.314161273089201       -34.3692912703265        -33.1083183752251        -43.8674010368965       
70           -32.1571986885143        -104.533429785394        -0.351228586101442       -40.5778922893688        -21.4596694565432        45.8368293562305         -44.3270264581639        -126.171006025372       
             -0.354883051728135       -40.5736356233287        -29.8760788996982        -91.2046839340548        -43.7292312290495        -123.318756880799        -21.4901563401549        47.027526201912         
             -21.4486553740541        45.9046546869146         -43.8086105719813        -121.404491503977        -41.8441374178182        -70.9042762512899        -0.353289337388415       -39.9066754993546       
             -44.2801000488372        -122.615604853306        -21.5391867062144        47.0011773402253         -0.348701630931228       -39.8784719232446        -32.0535272471178        -52.3806770962536       
80           -31.0658967728332        -113.992164860542        -0.38664113936619        -46.1964431301543        -20.592081386268         40.5202202024429         -42.9174613413966        -131.1675927351         
             -0.387505942359626       -46.1668731455377        -28.8055763729735        -98.2238512609845        -42.616848572157         -124.391560298527        -20.6357877312538        42.0807620839082        
             -20.5292006097814        40.3823706883373         -42.81567921153          -124.806275990587        -41.5402752514634        -90.691598812855         -0.380730312106372       -45.3700450050365       
             -42.7633388896894        -127.964532728738        -20.61179225698          41.8296963963469         -0.37900206750249        -45.3567637469073        -31.0088390808043        -60.6082334956709       
90           -30.3390410769183        -121.307575027506        -0.410556775207511       -51.7686481223177        -19.8586433010545        35.1169838346645         -42.1731383861201        -127.845087348579       
             -0.414688598734553       -51.7915646718892        -28.0070616938414        -105.461283139455        -41.1029518071493        -125.318986642467        -19.8756974476601        37.0190984017667        
             -19.8589085243327        35.0670889517617         -41.4150996644072        -125.40999626195         -41.0171714769456        -114.637805726358        -0.404783039595583       -50.8656241410682       
             -42.2471560644216        -129.499883265095        -19.8973174784087        36.9327401049009         -0.405437444343575       -50.8639240682965        -30.0951694857491        -68.6255780919521       
100          -29.6589393863674        -129.105047415188        -0.442748662904594       -57.3193809170514        -19.283116909373         30.0210262669636         -40.8325674865324        -132.953671077347       
             -0.443874556309615       -57.3297319807137        -27.4667374442334        -111.583624102864        -39.6633319863846        -129.614551062645        -19.2830811583413        31.7132742893955        
             -19.2809019117338        29.9443629607005         -39.6105736377464        -129.554515979722        -40.3691048299512        -131.503976047909        -0.441203226325353       -56.3383798318451       
             -40.4801391221928        -132.125990554441        -19.28713152947          31.7406232122324         -0.437489950012264       -56.3413124092333        -29.3456823003629        -76.6136756354244       
110          -29.2716646329701        -136.270274600961        -0.470319882398858       -62.9043212514913        -18.8108523992694        24.6764339596823         -39.7604584541806        -137.127482209197       
             -0.47204612672537        -62.8973736163036        -27.0573237703752        -117.11353032144         -38.4513787396724        -134.277713733393        -18.8374784720816        26.6902446304489        
             -18.8072105296362        24.6150631350553         -38.595252058339         -133.348389575228        -39.728767660812         -150.969959555781        -0.466245334273085       -61.8145147688656       
             -39.6629599568149        -137.197104712466        -18.8273544301198        26.5558294004222         -0.465678799235848       -61.8228209457726        -28.6618554867251        -82.8943707101557       
120          -28.9676450737912        -143.424307527241        -0.495120157175099       -68.361411976042         -18.4443546185385        19.5363310098569         -38.6868783761838        -141.27196300041        
             -0.500325394609858       -68.3929094731641        -26.7055041233587        -123.155715828334        -37.5861050918981        -138.558203666091        -18.4598224448249        21.5843716293827        
             -18.4245029662922        19.5640553978878         -37.474492798146         -139.803464953412        -38.0085162439973        -163.179290629313        -0.492733515745608       -67.2564558569292       
             -38.4149962283986        -141.622327604061        -18.451269198516         21.6097331833867         -0.489266460987964       -67.2409967796932        -28.017330536782         -89.9653722555342       
130          -28.8002817066956        -149.324337535101        -0.518830467207896       -73.8861752015991        -18.1297538301841        14.2393753044097         -37.5235552592188        -147.201802962696       
             -0.519961434425183       -73.9043545106205        -26.5104611066954        -128.539493904568        -36.6018783009469        -146.005681635719        -18.1944961307166        16.4397489990901        
             -18.1528731140953        14.2674676890922         -36.4672323196347        -145.293361458673        -36.7409034531777        -175.744656223663        -0.51507941490466        -72.665863701251        
             -37.7064598761245        -146.179717006085        -18.1809476107386        16.4618300502323         -0.517833534502174       -72.6755167607482        -27.5296551741253        -95.7378357317823       
140          -28.742943622198         -155.168872286085        -0.547021582882183       -79.4485071721013        -17.9276420998449        8.99441472032614         -36.5310061833769        -151.489926618375       
             -0.547327362482502       -79.446818998139         -26.4836636412045        -133.397086257186        -35.6366343301067        -151.558139573497        -18.0003389699529        11.3247690325302        
             -17.9413720771193        9.03317807851144         -35.5650485244449        -150.305880865864        -35.6426902569005        173.860223765121         -0.54024655890077        -78.1122741551185       
             -36.676557763593         -151.451045028783        -17.9824298054708        11.4166029094998         -0.541140954666412       -78.1193194809931        -27.1062662281495        -101.949476710031       
150          -28.751249862435         -160.818708333829        -0.562975667794664       -84.9023390715041        -17.8165492667852        3.72543418802767         -35.6378537039731        -157.390416946302       
             -0.566502054262465       -84.9186845339182        -26.4997703113885        -138.536674102621        -34.6616051892034        -156.743002408404        -17.8769928189721        6.3980549496854         
             -17.8164524200611        3.75194460528471         -34.6193459289123        -156.949587792345        -34.5383796197494        162.972703237601         -0.553616524168688       -83.5281374996718       
             -35.8226470766685        -156.49605971294         -17.8791886321515        6.32597599723036         -0.559178970295678       -83.525165066675         -26.7221226439021        -107.967196025222       
160          -29.1246214717775        -166.166486563119        -0.586554722760911       -90.4130158086056        -17.7886616906191        -1.46368867174994        -34.9051701772345        -161.7748371004         
             -0.58839202877818        -90.4041489417156        -26.6108179717684        -143.412718768817        -33.9336615643471        -163.009095959089        -17.856367216124         1.43676474304736        
             -17.7950991282451        -1.51147579462101        -33.9570270120678        -162.043815330032        -33.8018107141968        154.631632139389         -0.581388869927077       -88.9522436940986       
             -34.9834481300701        -162.521149389692        -17.8288328157536        1.28415103907236         -0.583540091314393       -88.9555786485434        -26.4881442821239        -113.66618999533        
170          -29.4175222846028        -171.270949925031        -0.602133509347601       -95.9069325421613        -17.82683928361          -6.65197113129221        -34.1707183239668        -167.556639635944       
             -0.606499050002444       -95.9231887604352        -26.8773265501786        -147.916614187293        -33.1945947573322        -168.857161744297        -17.8658877691209        -3.70027210212744       
             -17.8204267425445        -6.62415774857735        -33.0987114629792        -168.760671616406        -33.2366161044298        146.199216285683         -0.59698290428084        -94.3199673524328       
             -34.1738572796137        -168.389657613507        -17.8872635091156        -3.65020943196018        -0.598473651858149       -94.3261874987935        -26.2379029885928        -119.325641325468       
180          -29.8645226424454        -175.093159519218        -0.616344387960569       -101.398784682531        -17.9330950027841        -11.7707968304987        -33.4590060510034        -173.884582082474       
             -0.618588328031466       -101.395751224777        -27.3512531156015        -151.897747596524        -32.5111741236465        -175.217434060416        -17.9852760023578        -8.65821935395328       
             -17.9395791340237        -11.9035870556859        -32.5703625803013        -175.507009499741        -32.7124500715987        139.521366952971         -0.610331965952494       -99.7454928058805       
             -33.3862738115719        -173.379341441283        -17.9753688044671        -8.5894621050707         -0.609106476522885       -99.730326033529         -26.136342585972         -124.519399138614       
190          -30.5409991067573        -178.075312787693        -0.634171769814128       -106.896209021418        -18.1213865654514        -16.9808424787069        -32.8025204921592        179.457081723877        
             -0.63255026408419        -106.909190536388        -27.9508560216038        -155.503729545812        -31.92721166493          177.693356581373         -18.1776588119475        -13.5512634049285       
             -18.112592312084         -16.9615676972317        -32.0103644884031        178.363957578433         -32.2497285158457        132.793930773042         -0.627786720657151       -105.133414846328       
             -32.7570956954571        179.761736500478         -18.1892190278217        -13.6689876251139        -0.631373750740558       -105.12851060122         -26.1627520203487        -130.254728029005       
200          -31.3859138297742        -179.909751558628        -0.643920033648943       -112.407840726736        -18.3809740423593        -22.0372315563274        -32.2302139984156        173.415758896033        
             -0.646060801760178       -112.401156606227        -28.7307728081409        -158.845926853595        -31.3240433054772        171.738075306988         -18.456146900267         -18.4203333478385       
             -18.3625793039596        -22.0799506730629        -31.3151403059827        171.327566957768         -31.9607999042616        125.880307466203         -0.640838195837097       -110.502837403857       
             -32.2048104527966        173.533608902097         -18.4520362674406        -18.4220721548575        -0.64437834146211        -110.515445394523        -26.1953584459395        -135.736353983011       
210          -32.4449140858204        179.282528060938         -0.649140966665908       -117.869197211654        -18.7296955223544        -27.0304298513878        -31.6285371880564        167.958368292194        
             -0.654011856095284       -117.882517586905        -29.7858508613943        -161.695729671235        -30.8661928339417        165.215389540493         -18.7917863354963        -23.2632178193996       
             -18.7163840459912        -27.2558507002458        -30.86537736619          164.988989082388         -31.7603075861118        120.316610064616         -0.656051317242574       -115.922014798301       
             -31.6421984679466        167.88137091607          -18.8237739729128        -23.3235980323706        -0.653627269697768       -115.918072505766        -26.3236945941558        -141.509642414771       
220          -33.6295115803326        -179.676749883811        -0.660848929563738       -123.39568220298         -19.177129484978         -32.2887967222432        -31.1245144697293        161.25116838336         
             -0.665584436353638       -123.413232443524        -31.188996409796         -163.159545427916        -30.4520525963423        158.386192574962         -19.2524939688167        -28.1692127799676       
             -19.1759609892876        -32.1725118562358        -30.417333475894         157.912927290454         -31.7586092780549        113.832709739092         -0.660198364481027       -121.357532360509       
             -31.1449982249483        161.448854126222         -19.2486257443765        -28.0557585317402        -0.661648012360811       -121.347799967596        -26.615278708596         -146.909787043147       
230          -34.8473117146186        -173.864111880707        -0.673589884044387       -128.916707436516        -19.7316587424992        -37.0873376389748        -30.6933173753592        155.147200797848        
             -0.675252065762859       -128.922128935032        -33.0005476285708        -162.871039870301        -30.0179218270809        151.460506475148         -19.7833447732225        -32.6619087366741       
             -19.7081259062108        -37.0862574792384        -30.0819080880473        151.970314435325         -31.5860803674981        109.778063502518         -0.672207293600657       -126.759423834043       
